   0.098170 1  100             Rx   d 8 8D E6 BF FF 00 00 00 80
   0.100940 1  105             Rx   d 8 3F 0F EE 0C 87 53 00 02
   0.103660 1  86              Rx   d 8 B2 24 55 21 00 73 D5 C2
   0.113500 1  86              Rx   d 8 CF 25 55 21 00 6B D5 A6
   0.118130 1  100             Rx   d 8 8C E7 BF FF 00 00 00 80
   0.120320 1  105             Rx   d 8 2E 00 F0 0C 87 53 00 02
   0.123640 1  86              Rx   d 8 87 26 55 21 00 63 D5 E5
   0.133510 1  86              Rx   d 8 FA 27 55 21 00 7B D5 81
   0.138200 1  100             Rx   d 8 83 E8 BF FF 00 00 00 80
   0.140760 1  105             Rx   d 8 31 01 EE 0C 87 53 00 02
   0.143700 1  86              Rx   d 8 72 28 55 21 00 73 D5 0E
   0.153500 1  86              Rx   d 8 0F 29 55 21 00 6B D5 6A
   0.158080 1  100             Rx   d 8 82 E9 BF FF 00 00 00 80
   0.159680 1  105             Rx   d 8 32 02 EE 0C 87 53 00 02
   0.163570 1  86              Rx   d 8 47 2A 55 21 00 63 D5 29
   0.173460 1  86              Rx   d 8 3A 2B 55 21 00 7B D5 4D
   0.178080 1  100             Rx   d 8 81 EA BF FF 00 00 00 80
   0.179920 1  105             Rx   d 8 33 03 EE 0C 87 53 00 02
   0.183680 1  86              Rx   d 8 D7 2C 55 21 00 73 D5 AF
   0.193560 1  86              Rx   d 8 AA 2D 55 21 00 6B D5 CB
   0.198200 1  100             Rx   d 8 80 EB BF FF 00 00 00 80
   0.199990 1  105             Rx   d 8 2C 04 F6 0C 87 53 00 02
   0.203630 1  86              Rx   d 8 E2 2E 55 21 00 63 D5 88
   0.213450 1  86              Rx   d 8 9F 2F 55 21 00 7B D5 EC
   0.218210 1  100             Rx   d 8 87 EC BF FF 00 00 00 80
   0.220270 1  105             Rx   d 8 23 05 F8 0C 87 53 00 02
   0.223740 1  86              Rx   d 8 17 20 55 21 00 73 D5 63
   0.233630 1  86              Rx   d 8 6A 21 55 21 00 6B D5 07
   0.238240 1  100             Rx   d 8 86 ED BF FF 00 00 00 80
   0.239950 1  105             Rx   d 8 20 06 F8 0C 87 53 00 02
   0.243750 1  86              Rx   d 8 22 22 55 21 00 63 D5 44
   0.253470 1  86              Rx   d 8 5F 23 55 21 00 7B D5 20
   0.258150 1  100             Rx   d 8 85 EE BF FF 00 00 00 80
   0.259850 1  105             Rx   d 8 25 07 FC 0C 87 53 00 02
   0.263700 1  86              Rx   d 8 B2 24 55 21 00 73 D5 C2
   0.273450 1  86              Rx   d 8 CF 25 55 21 00 6B D5 A6
   0.278150 1  100             Rx   d 8 84 EF BF FF 00 00 00 80
   0.280910 1  105             Rx   d 8 28 08 FE 0C 87 53 00 02
   0.283760 1  86              Rx   d 8 87 26 55 21 00 63 D5 E5
   0.293440 1  86              Rx   d 8 FA 27 55 21 00 7B D5 81
   0.298240 1  100             Rx   d 8 8B E0 BF FF 00 00 00 80
   0.300760 1  105             Rx   d 8 29 09 FA 0C 83 53 00 02
   0.303640 1  86              Rx   d 8 72 28 55 21 00 73 D5 0E
   0.313450 1  86              Rx   d 8 0F 29 55 21 00 6B D5 6A
   0.318240 1  100             Rx   d 8 8A E1 BF FF 00 00 00 80
   0.320760 1  105             Rx   d 8 28 0A F8 0C 83 53 00 02
   0.323600 1  86              Rx   d 8 47 2A 55 21 00 63 D5 29
   0.333440 1  86              Rx   d 8 3A 2B 55 21 00 7B D5 4D
   0.338120 1  100             Rx   d 8 89 E2 BF FF 00 00 00 80
   0.339690 1  105             Rx   d 8 2F 0B FE 0C 83 53 00 02
   0.343660 1  86              Rx   d 8 D7 2C 55 21 00 73 D5 AF
   0.353460 1  86              Rx   d 8 55 2D 56 21 00 6B D5 37
   0.358230 1  100             Rx   d 8 88 E3 BF FF 00 00 00 80
   0.359930 1  105             Rx   d 8 D3 0C 04 0D 83 53 00 02
   0.363720 1  86              Rx   d 8 1D 2E 56 21 00 63 D5 74
   0.373520 1  86              Rx   d 8 60 2F 56 21 00 7B D5 10
   0.378120 1  100             Rx   d 8 8F E4 BF FF 00 00 00 80
   0.379790 1  105             Rx   d 8 29 0D FE 0C 83 53 00 02
   0.383740 1  86              Rx   d 8 E8 20 56 21 00 73 D5 9F
   0.393440 1  86              Rx   d 8 95 21 56 21 00 6B D5 FB
   0.398240 1  100             Rx   d 8 8E E5 BF FF 00 00 00 80
   0.399560 1  105             Rx   d 8 2A 0E FE 0C 83 53 00 02
   0.403560 1  86              Rx   d 8 DD 22 56 21 00 63 D5 B8
   0.413450 1  86              Rx   d 8 A0 23 56 21 00 7B D5 DC
   0.418120 1  100             Rx   d 8 8D E6 BF FF 00 00 00 80
   0.419930 1  105             Rx   d 8 D2 0F 06 0D 83 53 00 02
   0.423640 1  86              Rx   d 8 18 24 57 21 00 73 D5 6A
   0.433440 1  86              Rx   d 8 65 25 57 21 00 6B D5 0E
   0.438000 1  100             Rx   d 8 8C E7 BF FF 00 00 00 80
   0.440170 1  105             Rx   d 8 DF 00 04 0D 83 53 00 02
   0.443610 1  86              Rx   d 8 2D 26 57 21 00 63 D5 4D
   0.453430 1  86              Rx   d 8 22 27 58 21 00 7B D5 54
   0.458000 1  100             Rx   d 8 83 E8 BF FF 00 00 00 80
   0.461070 1  105             Rx   d 8 25 01 FE 0C 83 53 00 02
   0.463560 1  86              Rx   d 8 AA 28 58 21 00 73 D5 DB
   0.473440 1  86              Rx   d 8 82 29 59 21 00 6B D5 EB
   0.478000 1  100             Rx   d 8 82 E9 BF FF 00 00 00 80
   0.480270 1  105             Rx   d 8 DB 02 02 0D 83 53 00 02
   0.483620 1  86              Rx   d 8 CA 2A 59 21 00 63 D5 A8
   0.493430 1  86              Rx   d 8 48 2B 5A 21 00 7B D5 30
   0.498020 1  100             Rx   d 8 81 EA BF FF 00 00 00 80
   0.500300 1  105             Rx   d 8 D2 03 0A 0D 83 53 00 02
   0.503620 1  86              Rx   d 8 A5 2C 5A 21 00 73 D5 D2
   0.513680 1  86              Rx   d 8 D8 2D 5A 21 00 6B D5 B6
   0.518060 1  100             Rx   d 8 80 EB BF FF 00 00 00 80
   0.519990 1  105             Rx   d 8 D5 04 0A 0D 83 53 00 02
   0.523610 1  86              Rx   d 8 C5 2E 5B 21 00 63 D5 A1
   0.533490 1  86              Rx   d 8 B8 2F 5B 21 00 7B D5 C5
   0.538080 1  100             Rx   d 8 87 EC BF FF 00 00 00 80
   0.540250 1  105             Rx   d 8 D2 05 08 0D 83 53 04 02
   0.543640 1  86              Rx   d 8 4B 20 5C E1 00 73 D5 F6
   0.553490 1  86              Rx   d 8 C9 21 5C 21 00 6B D5 AD
   0.558070 1  100             Rx   d 8 86 ED BF FF 00 00 00 80
   0.559880 1  105             Rx   d 8 DA 06 0C 0D 82 53 0A 02
   0.563680 1  86              Rx   d 8 2B 22 5D E1 00 63 D5 85
   0.569330 1  640             Rx   d 8 00 5D 68 87 79 00 00 00
   0.573420 1  86              Rx   d 8 A9 23 5E E1 00 7B D5 1D
   0.577960 1  100             Rx   d 8 85 EE BF FF 00 00 00 80
   0.580240 1  105             Rx   d 8 DC 07 0C 0D 82 53 0D 02
   0.583690 1  86              Rx   d 8 11 24 5F E1 00 73 D5 AB
   0.593420 1  86              Rx   d 8 AA 25 61 E1 00 EB D2 B0
   0.598040 1  100             Rx   d 8 84 EF BF FF 00 00 00 80
   0.600330 1  105             Rx   d 8 DD 08 1E 0D 82 53 11 02
   0.603540 1  86              Rx   d 8 48 26 63 E1 00 E3 D2 5B
   0.613430 1  86              Rx   d 8 AF 27 64 61 01 FB D2 23
   0.618060 1  100             Rx   d 8 8B E0 BF FF 00 00 00 80
   0.620720 1  105             Rx   d 8 F0 09 36 0D 82 53 15 02
   0.623570 1  86              Rx   d 8 8D 28 66 61 01 F3 D2 04
   0.633420 1  86              Rx   d 8 D7 29 68 61 01 EB D2 49
   0.638000 1  100             Rx   d 8 8A E1 BF FF 00 00 00 80
   0.640890 1  105             Rx   d 8 43 0A 8A 0D 82 53 19 02
   0.643630 1  86              Rx   d 8 35 2A 6A 61 01 E3 D2 A2
   0.653420 1  86              Rx   d 8 33 2B 6C E1 01 FB D2 3B
   0.657990 1  100             Rx   d 8 89 E2 BF FF 00 00 00 80
   0.660180 1  105             Rx   d 8 BE 0B 72 0E 82 53 1E 02
   0.663560 1  86              Rx   d 8 21 2C 6F E1 01 F3 D2 25
   0.673410 1  86              Rx   d 8 1E 2D 72 61 02 EB D2 9D
   0.678000 1  100             Rx   d 8 88 E3 BF FF 00 00 00 80
   0.679560 1  105             Rx   d 8 CC 0C 06 0F 82 53 1E 02
   0.683600 1  86              Rx   d 8 D2 2E 75 61 02 E3 D2 5D
   0.693490 1  86              Rx   d 8 90 2F 79 61 02 7B D0 88
   0.698130 1  100             Rx   d 8 8F E4 BF FF 00 00 00 80
   0.700890 1  105             Rx   d 8 B4 0D 7E 0F 82 53 1F 02
   0.703600 1  86              Rx   d 8 C9 20 7D E1 02 73 D0 52
   0.713460 1  86              Rx   d 8 1E 21 7F E1 02 6B D0 9E
   0.718170 1  100             Rx   d 8 8E E5 BF FF 00 00 00 80
   0.720220 1  105             Rx   d 8 7E 0E A8 10 82 53 1F 02
   0.723680 1  86              Rx   d 8 36 22 83 E1 02 63 D0 41
   0.733420 1  86              Rx   d 8 2E 23 87 61 03 7B D0 C5
   0.738040 1  100             Rx   d 8 8D E6 BF FF 00 00 00 80
   0.740920 1  105             Rx   d 8 93 0F 44 11 82 53 1E 02
   0.743770 1  86              Rx   d 8 F9 24 8D E1 03 F3 CD 0A
   0.753430 1  86              Rx   d 8 35 25 92 E1 03 EB CD C0
   0.757970 1  100             Rx   d 8 8C E7 BF FF 00 00 00 80
   0.760000 1  105             Rx   d 8 89 00 52 12 82 53 1E 02
   0.763570 1  86              Rx   d 8 06 26 96 E1 03 E3 CD FC
   0.773430 1  86              Rx   d 8 74 27 9B 61 04 FB CD 1D
   0.778000 1  100             Rx   d 8 83 E8 BF FF 00 00 00 80
   0.780430 1  105             Rx   d 8 9B 01 40 13 82 53 1E 02
   0.783630 1  86              Rx   d 8 A9 28 A1 61 04 73 CB 7B
   0.793500 1  86              Rx   d 8 FA 29 A6 E1 04 6B CB B6
   0.798160 1  100             Rx   d 8 82 E9 BF FF 00 00 00 80
   0.800900 1  105             Rx   d 8 76 02 AE 13 82 53 1E 02
   0.803590 1  86              Rx   d 8 EE 2A AC E1 04 63 CB A3
   0.813410 1  86              Rx   d 8 66 2B B3 61 05 FB C8 2F
   0.818170 1  100             Rx   d 8 81 EA BF FF 00 00 00 80
   0.821170 1  105             Rx   d 8 52 03 8E 14 80 53 1E 02
   0.823760 1  86              Rx   d 8 D7 2C B9 61 05 F3 C8 9B
   0.833400 1  86              Rx   d 8 84 2D BE E1 05 EB C8 56
   0.838080 1  100             Rx   d 8 80 EB BF FF 00 00 00 80
   0.840730 1  105             Rx   d 8 BD 04 66 15 80 53 1F 02
   0.843690 1  86              Rx   d 8 87 2E C4 E1 05 E3 C8 24
   0.853440 1  86              Rx   d 8 E2 2F CC E1 05 7B C6 DE
   0.857960 1  100             Rx   d 8 87 EC BF FF 00 00 00 80
   0.860640 1  105             Rx   d 8 C3 05 1A 16 80 53 1F 02
   0.863660 1  86              Rx   d 8 71 20 D1 E1 05 73 C6 57
   0.873400 1  86              Rx   d 8 84 21 D7 61 06 6B C6 3E
   0.877990 1  100             Rx   d 8 86 ED BF FF 00 00 00 80
   0.880270 1  105             Rx   d 8 4E 06 94 16 80 53 1F 02
   0.883600 1  86              Rx   d 8 1B 22 DE 61 06 E3 C3 26
   0.893440 1  86              Rx   d 8 50 23 E4 61 06 FB C3 4E
   0.898000 1  100             Rx   d 8 85 EE BF FF 00 00 00 80
   0.899920 1  105             Rx   d 8 0D 07 D6 16 80 53 1F 02
   0.903520 1  86              Rx   d 8 9A 24 EA 61 06 F3 C3 85
   0.913400 1  86              Rx   d 8 9F 25 F1 61 06 6B C1 00
   0.918160 1  100             Rx   d 8 84 EF BF FF 00 00 00 80
   0.919720 1  105             Rx   d 8 DF 08 0A 17 80 53 1F 02
   0.923560 1  86              Rx   d 8 53 26 F6 61 06 63 C1 C0
   0.933370 1  86              Rx   d 8 27 27 FD 61 06 7B C1 A6
   0.938020 1  100             Rx   d 8 8B E0 BF FF 00 00 00 80
   0.940320 1  105             Rx   d 8 E2 09 36 17 80 53 1F 02
   0.943640 1  86              Rx   d 8 B7 28 04 62 06 F3 BE 34
   0.953370 1  86              Rx   d 8 ED 29 0A 62 06 EB BE 79
   0.958060 1  100             Rx   d 8 8A E1 BF FF 00 00 00 80
   0.959640 1  105             Rx   d 8 81 0A 56 17 80 53 1F 02
   0.963680 1  86              Rx   d 8 8B 2A 0F 62 06 E3 BE 11
   0.973420 1  86              Rx   d 8 69 2B 15 62 06 FB BE F0
   0.977990 1  100             Rx   d 8 89 E2 BF FF 00 00 00 80
   0.980640 1  105             Rx   d 8 BA 0B 6C 17 80 53 1F 02
   0.983640 1  86              Rx   d 8 11 2C 1B 62 06 73 BC 0B
   0.993480 1  86              Rx   d 8 0F 2D 20 62 06 6B BC 37
   0.998150 1  100             Rx   d 8 88 E3 BF FF 00 00 00 80
   0.999950 1  105             Rx   d 8 96 0C 78 17 80 53 20 02
   1.003650 1  86              Rx   d 8 30 2E 25 E2 05 63 BC 85
   1.013380 1  86              Rx   d 8 1E 2F 2B E2 05 FB B9 39
   1.018090 1  100             Rx   d 8 8F E4 BF FF 00 00 00 80
   1.020140 1  105             Rx   d 8 93 0D 7C 17 80 53 20 02
   1.023590 1  86              Rx   d 8 5C 20 30 E2 05 F3 B9 67
   1.033370 1  86              Rx   d 8 5A 21 34 E2 05 EB B9 7C
   1.037970 1  100             Rx   d 8 8E E5 BF FF 00 00 00 80
   1.040250 1  105             Rx   d 8 AD 0E 7E 17 80 53 1F 02
   1.043580 1  86              Rx   d 8 60 22 39 62 05 E3 B9 C0
   1.053380 1  86              Rx   d 8 66 23 3D 62 05 FB B9 DB
   1.057970 1  100             Rx   d 8 8D E6 BF FF 00 00 00 80
   1.059790 1  105             Rx   d 8 6D 0F 80 17 80 53 20 02
   1.063530 1  86              Rx   d 8 00 24 42 62 05 73 B7 43
   1.069460 1  640             Rx   d 8 00 5D 68 87 79 00 00 00
   1.073380 1  86              Rx   d 8 18 25 46 E2 04 6B B7 C7
   1.077980 1  100             Rx   d 8 8C E7 BF FF 00 00 00 80
   1.080260 1  105             Rx   d 8 AB 00 76 17 80 53 1F 02
   1.083580 1  86              Rx   d 8 DD 26 4A E2 04 63 B7 05
   1.093460 1  86              Rx   d 8 24 27 4D E2 04 7B B7 E2
   1.098070 1  100             Rx   d 8 83 E8 BF FF 00 00 00 80
   1.100350 1  105             Rx   d 8 AE 01 72 17 80 53 1F 02
   1.103560 1  86              Rx   d 8 47 28 52 E2 04 F3 B4 1A
   1.113370 1  86              Rx   d 8 14 29 55 62 04 EB B4 D7
   1.118040 1  100             Rx   d 8 82 E9 BF FF 00 00 00 80
   1.119980 1  105             Rx   d 8 B9 02 66 17 80 53 1F 02
   1.123550 1  86              Rx   d 8 84 2A 58 62 04 E3 B4 41
   1.133440 1  86              Rx   d 8 84 2B 5A E2 03 FB B4 DD
   1.138030 1  100             Rx   d 8 81 EA BF FF 00 00 00 80
   1.140440 1  105             Rx   d 8 8C 03 52 17 80 53 1F 02
   1.143650 1  86              Rx   d 8 ED 2C 5D E2 03 F3 B4 BC
   1.153370 1  86              Rx   d 8 77 2D 61 E2 03 EB B4 03
   1.158050 1  100             Rx   d 8 80 EB BF FF 00 00 00 80
   1.159620 1  105             Rx   d 8 99 04 40 17 80 53 1F 02
   1.163660 1  86              Rx   d 8 BB 2E 64 62 03 E3 B4 41
   1.173480 1  86              Rx   d 8 28 2F 68 62 03 7B B2 41
   1.178000 1  100             Rx   d 8 87 EC BF FF 00 00 00 80
   1.180390 1  105             Rx   d 8 FA 05 22 17 80 53 1F 02
   1.183610 1  86              Rx   d 8 DB 20 6C 62 03 73 B2 B1
   1.193450 1  86              Rx   d 8 0C 21 6E 62 03 6B B2 7D
   1.198030 1  100             Rx   d 8 86 ED BF FF 00 00 00 80
   1.199590 1  105             Rx   d 8 DF 06 04 17 80 53 1F 02
   1.203520 1  86              Rx   d 8 0A 22 72 62 03 63 B2 6C
   1.213380 1  86              Rx   d 8 0C 23 76 62 03 7B B2 77
   1.218080 1  100             Rx   d 8 85 EE BF FF 00 00 00 80
   1.220120 1  105             Rx   d 8 01 07 DA 16 80 53 1F 02
   1.223580 1  86              Rx   d 8 A0 24 7A 62 03 F3 AF 45
   1.233380 1  86              Rx   d 8 59 25 7F E2 03 EB AF 20
   1.238080 1  100             Rx   d 8 84 EF BF FF 00 00 00 80
   1.240720 1  105             Rx   d 8 78 08 AC 16 80 53 1F 02
   1.243690 1  86              Rx   d 8 24 26 82 E2 03 E3 AF AB
   1.253360 1  86              Rx   d 8 22 27 86 E2 03 FB AF B0
   1.257970 1  100             Rx   d 8 8B E0 BF FF 00 00 00 80
   1.260760 1  105             Rx   d 8 98 09 72 16 80 53 20 02
   1.263530 1  86              Rx   d 8 72 28 8B E2 03 F3 AF EA
   1.273390 1  86              Rx   d 8 F5 29 91 62 04 6B AD 6B
   1.277960 1  100             Rx   d 8 8A E1 BF FF 00 00 00 80
   1.280720 1  105             Rx   d 8 B9 0A 50 16 80 53 20 02
   1.283580 1  86              Rx   d 8 39 2A 96 62 04 63 AD AB
   1.293440 1  86              Rx   d 8 C9 2B 9A 62 04 7B AD 4E
   1.298080 1  100             Rx   d 8 89 E2 BF FF 00 00 00 80
   1.300840 1  105             Rx   d 8 FA 0B 12 16 80 53 20 02
   1.303560 1  86              Rx   d 8 66 2C A1 E2 04 F3 AA D2
   1.313420 1  86              Rx   d 8 9F 2D A6 E2 04 EB AA 35
   1.318090 1  100             Rx   d 8 88 E3 BF FF 00 00 00 80
   1.319900 1  105             Rx   d 8 08 0C E4 15 80 53 20 02
   1.323580 1  86              Rx   d 8 95 2E AC 62 05 E3 AA BF
   1.333350 1  86              Rx   d 8 0C 2F B2 62 05 FB AA 21
   1.338080 1  100             Rx   d 8 8F E4 BF FF 00 00 00 80
   1.340370 1  105             Rx   d 8 53 0D BE 15 80 53 20 02
   1.343580 1  86              Rx   d 8 6A 20 BA E2 05 73 A8 4A
   1.353340 1  86              Rx   d 8 5C 21 C0 E2 05 6B A8 1F
   1.358010 1  100             Rx   d 8 8E E5 BF FF 00 00 00 80
   1.360080 1  105             Rx   d 8 48 0E A6 15 80 53 20 02
   1.363560 1  86              Rx   d 8 17 22 C9 62 06 E3 A5 58
   1.373360 1  86              Rx   d 8 0A 23 D0 62 06 FB A5 45
   1.377960 1  100             Rx   d 8 8D E6 BF FF 00 00 00 80
   1.380240 1  105             Rx   d 8 77 0F 98 15 80 53 20 02
   1.383560 1  86              Rx   d 8 BB 24 D8 E2 06 F3 A5 73
   1.393440 1  86              Rx   d 8 72 25 E1 62 07 6B A3 9D
   1.398080 1  100             Rx   d 8 8C E7 BF FF 00 00 00 80
   1.400720 1  105             Rx   d 8 6C 00 8C 15 80 53 20 02
   1.403570 1  86              Rx   d 8 33 26 EA 62 07 63 A3 DC
   1.413330 1  86              Rx   d 8 5A 27 F4 E2 07 FB A0 B1
   1.418070 1  100             Rx   d 8 83 E8 BF FF 00 00 00 80
   1.420720 1  105             Rx   d 8 6D 01 8C 15 80 53 20 02
   1.423590 1  86              Rx   d 8 C0 28 FC 62 08 F3 A0 AB
   1.433350 1  86              Rx   d 8 EE 29 07 E3 08 6B 9E 58
   1.438020 1  100             Rx   d 8 82 E9 BF FF 00 00 00 80
   1.441040 1  105             Rx   d 8 59 02 84 15 80 53 1F 02
   1.443640 1  86              Rx   d 8 E1 2A 10 E3 08 63 9E 4B
   1.453360 1  86              Rx   d 8 7B 2B 1C 63 09 FB 9B C0
   1.458000 1  100             Rx   d 8 81 EA BF FF 00 00 00 80
   1.460650 1  105             Rx   d 8 6F 03 8C 15 80 53 20 02
   1.463540 1  86              Rx   d 8 A0 2C 26 63 09 F3 9B 2E
   1.473370 1  86              Rx   d 8 28 2D 33 E3 09 6B 99 A8
   1.477960 1  100             Rx   d 8 80 EB BF FF 00 00 00 80
   1.480240 1  105             Rx   d 8 6E 04 8A 15 80 53 20 02
   1.483550 1  86              Rx   d 8 E1 2E 3E 63 0A 63 99 E4
   1.493400 1  86              Rx   d 8 09 2F 4B E3 0A FB 96 6F
   1.498070 1  100             Rx   d 8 87 EC BF FF 00 00 00 80
   1.499630 1  105             Rx   d 8 63 05 86 15 80 53 20 02
   1.503550 1  86              Rx   d 8 44 20 59 63 0B 73 94 34
   1.513320 1  86              Rx   d 8 DE 21 65 63 0B 6B 94 8B
   1.518170 1  100             Rx   d 8 86 ED BF FF 00 00 00 80
   1.520810 1  105             Rx   d 8 6A 06 8C 15 80 53 20 02
   1.523540 1  86              Rx   d 8 09 22 74 63 0C E3 91 C4
   1.533310 1  86              Rx   d 8 C6 23 83 63 0C 7B 8F 7B
   1.538030 1  100             Rx   d 8 85 EE BF FF 00 00 00 80
   1.540850 1  105             Rx   d 8 77 07 90 15 80 53 20 02
   1.543590 1  86              Rx   d 8 53 24 92 63 0D F3 8C 72
   1.553320 1  86              Rx   d 8 F6 25 9F 63 0D EB 8C C3
   1.557960 1  100             Rx   d 8 84 EF BF FF 00 00 00 80
   1.560720 1  105             Rx   d 8 76 08 9E 15 80 53 20 02
   1.563520 1  86              Rx   d 8 1D 26 AF E3 0D 63 8A 15
   1.569320 1  640             Rx   d 8 00 5D 68 87 79 00 00 00
   1.573360 1  86              Rx   d 8 0F 27 BE E3 0D FB 87 82
   1.577960 1  100             Rx   d 8 8B E0 BF FF 00 00 00 80
   1.580250 1  105             Rx   d 8 70 09 A6 15 80 53 1F 02
   1.583570 1  86              Rx   d 8 36 28 CD 63 0E F3 87 4C
   1.593400 1  86              Rx   d 8 EB 29 DB 63 0E 6B 85 1C
   1.598140 1  100             Rx   d 8 8A E1 BF FF 00 00 00 80
   1.599960 1  105             Rx   d 8 70 0A A4 15 80 53 1E 02
   1.603530 1  86              Rx   d 8 BD 2A EA E3 0E E3 82 77
   1.613340 1  86              Rx   d 8 4E 2B F9 E3 0E 7B 80 0C
   1.618080 1  100             Rx   d 8 89 E2 BF FF 00 00 00 80
   1.620630 1  105             Rx   d 8 7C 0B A8 15 80 53 1F 02
   1.623590 1  86              Rx   d 8 5C 2C 07 E4 0E 73 80 E8
   1.633320 1  86              Rx   d 8 BD 2D 15 E4 0E EB 7D 7F
   1.638110 1  100             Rx   d 8 88 E3 BF FF 00 00 00 80
   1.640750 1  105             Rx   d 8 49 0C 9A 15 80 53 1F 02
   1.643600 1  86              Rx   d 8 2D 2E 23 E4 0E 63 7B 54
   1.653330 1  86              Rx   d 8 77 2F 2F 64 0E 7B 7B 9B
   1.657960 1  100             Rx   d 8 8F E4 BF FF 00 00 00 80
   1.660990 1  105             Rx   d 8 42 0D 90 15 80 53 1F 02
   1.663510 1  86              Rx   d 8 99 20 3C 64 0E F3 78 E2
   1.673350 1  86              Rx   d 8 6A 21 49 E4 0D 6B 76 70
   1.677930 1  100             Rx   d 8 8E E5 BF FF 00 00 00 80
   1.680960 1  105             Rx   d 8 AD 0E 7C 15 80 53 1F 02
   1.683560 1  86              Rx   d 8 39 22 54 E4 0D 63 76 35
   1.693430 1  86              Rx   d 8 DE 23 61 64 0D FB 73 FB
   1.698040 1  100             Rx   d 8 8D E6 BF FF 00 00 00 80
   1.700600 1  105             Rx   d 8 A2 0F 72 15 80 53 1F 02
   1.703560 1  86              Rx   d 8 71 24 6B E4 0C F3 73 D0
   1.713440 1  86              Rx   d 8 A5 25 76 E4 0C 6B 71 82
   1.718140 1  100             Rx   d 8 A1 E7 BF FF 2D 00 00 80
   1.719720 1  105             Rx   d 8 AF 00 70 15 80 53 1F 02
   1.723520 1  86              Rx   d 8 66 26 7E E4 0B 63 71 45
   1.733320 1  86              Rx   d 8 14 27 88 E4 0B FB 6E 47
   1.738010 1  100             Rx   d 8 AE E8 BF FF 2D 00 00 80
   1.740290 1  105             Rx   d 8 B6 01 68 15 80 53 1F 02
   1.743600 1  86              Rx   d 8 1D 28 90 E4 0A F3 6E 50
   1.753480 1  86              Rx   d 8 24 29 98 E4 0A 6B 6C FA
   1.758040 1  100             Rx   d 8 C1 E9 BF FF 43 00 00 80
   1.760680 1  105             Rx   d 8 B9 02 64 15 80 53 1F 02
   1.763600 1  86              Rx   d 8 1B 2A 9F E4 09 63 6C CA
   1.773390 1  86              Rx   d 8 FA 2B A5 64 09 7B 6C 88
   1.777980 1  100             Rx   d 8 C2 EA BF FF 43 00 00 80
   1.780750 1  105             Rx   d 8 B8 03 64 15 80 53 1F 02
   1.783590 1  86              Rx   d 8 8B 2C AD E4 08 F3 69 FA
   1.793410 1  86              Rx   d 8 ED 2D B2 64 08 EB 69 1A
   1.798070 1  100             Rx   d 8 C9 EB BF FF 49 00 00 80
   1.800700 1  105             Rx   d 8 BF 04 64 15 80 53 1F 02
   1.803550 1  86              Rx   d 8 6F 2E B7 E4 07 E3 69 19
   1.813420 1  86              Rx   d 8 B1 2F BC 64 07 FB 69 55
   1.818180 1  100             Rx   d 8 CE EC BF FF 49 00 00 80
   1.819730 1  105             Rx   d 8 BE 05 64 15 80 53 1F 02
   1.823550 1  86              Rx   d 8 AC 20 C3 E4 06 73 67 3F
   1.833340 1  86              Rx   d 8 00 21 C7 64 06 6B 67 0E
   1.837970 1  100             Rx   d 8 C8 ED BF FF 4E 00 00 80
   1.839890 1  105             Rx   d 8 B3 06 6A 15 80 53 1F 02
   1.843570 1  86              Rx   d 8 41 22 CC 64 06 63 67 4F
   1.853300 1  86              Rx   d 8 DB 23 D2 E4 05 FB 64 D2
   1.857960 1  100             Rx   d 8 D1 EE BF FF 54 00 00 80
   1.859740 1  105             Rx   d 8 B6 07 6E 15 80 53 1F 02
   1.863610 1  86              Rx   d 8 18 24 D7 E4 05 F3 64 1B
   1.873290 1  86              Rx   d 8 42 25 DB 64 05 EB 64 D4
   1.877940 1  100             Rx   d 8 D0 EF BF FF 54 00 00 80
   1.880720 1  105             Rx   d 8 A7 08 70 15 80 53 1F 02
   1.883450 1  86              Rx   d 8 69 26 E0 64 05 E3 64 CF
   1.893400 1  86              Rx   d 8 3A 27 E5 64 05 FB 64 80
   1.898090 1  100             Rx   d 8 DF E0 BF FF 54 00 00 80
   1.900600 1  105             Rx   d 8 A4 09 72 15 80 53 1F 02
   1.903450 1  86              Rx   d 8 F6 28 EB 64 05 73 62 C3
   1.913310 1  86              Rx   d 8 A5 29 EE 64 05 6B 62 8C
   1.918120 1  100             Rx   d 8 D5 E1 BF FF 5F 00 00 80
   1.920990 1  105             Rx   d 8 A4 0A 70 15 80 53 1E 02
   1.923470 1  86              Rx   d 8 E8 2A F3 E4 04 63 62 56
   1.933400 1  86              Rx   d 8 8E 2B FA 64 05 FB 5F 1C
   1.938020 1  100             Rx   d 8 D6 E2 BF FF 5F 00 00 80
   1.940410 1  105             Rx   d 8 A7 0B 72 15 80 53 1E 02
   1.943500 1  86              Rx   d 8 4D 2C FF 64 05 F3 5F D5
   1.953300 1  86              Rx   d 8 78 2D 04 65 05 EB 5F 03
   1.958040 1  100             Rx   d 8 D7 E3 BF FF 5F 00 00 80
   1.960210 1  105             Rx   d 8 A2 0C 70 15 80 53 1E 02
   1.963610 1  86              Rx   d 8 E8 2E 09 65 05 E3 5F 95
   1.973350 1  86              Rx   d 8 47 2F 10 65 05 7B 5D B8
   1.977960 1  100             Rx   d 8 FF E4 BF FF 70 00 00 80
   1.979760 1  105             Rx   d 8 BD 0D 6E 15 80 53 1E 02
   1.983500 1  86              Rx   d 8 1E 20 16 65 05 73 5D E0
   1.993370 1  86              Rx   d 8 95 21 1C E5 05 6B 5D F8
   1.998040 1  100             Rx   d 8 FE E5 BF FF 70 00 00 80
   2.000670 1  105             Rx   d 8 B0 0E 60 15 80 53 1E 02
   2.003570 1  86              Rx   d 8 CA 22 24 E5 05 E3 5A 13
   2.013260 1  86              Rx   d 8 C9 23 2A 65 06 FB 5A 84
   2.018060 1  100             Rx   d 8 FB E6 BF FF 76 00 00 80
   2.020810 1  105             Rx   d 8 8B 0F 5A 15 80 53 1E 02
   2.023670 1  86              Rx   d 8 11 24 32 65 06 F3 5A 4B
   2.033280 1  86              Rx   d 8 D7 25 3B E5 06 6B 58 9F
   2.038100 1  100             Rx   d 8 F7 E7 BF FF 7B 00 00 80
   2.039910 1  105             Rx   d 8 90 00 4C 15 80 53 1C 02
   2.043630 1  86              Rx   d 8 7E 26 43 E5 06 63 58 45
   2.053280 1  86              Rx   d 8 C3 27 4D 65 07 FB 55 E3
   2.057920 1  100             Rx   d 8 F8 E8 BF FF 7B 00 00 80
   2.059720 1  105             Rx   d 8 9E 01 44 15 80 53 1B 02
   2.063400 1  86              Rx   d 8 D4 28 55 E5 07 F3 55 6B
   2.069320 1  640             Rx   d 8 00 5D 68 87 79 00 00 00
   2.073370 1  86              Rx   d 8 96 29 5F E5 07 6B 53 BC
   2.077960 1  100             Rx   d 8 03 E9 BF FF 81 00 00 80
   2.080190 1  105             Rx   d 8 E3 02 3A 15 80 53 1B 02
   2.083460 1  86              Rx   d 8 A6 2A 67 65 08 63 53 30
   2.093360 1  86              Rx   d 8 39 2B 71 E5 08 FB 50 A3
   2.098080 1  100             Rx   d 8 00 EA BF FF 81 00 00 80
   2.100840 1  105             Rx   d 8 C1 03 1A 15 80 53 18 02
   2.103440 1  86              Rx   d 8 88 2C 7B E5 08 F3 50 17
   2.113300 1  86              Rx   d 8 21 2D 85 65 09 EB 50 D8
   2.118130 1  100             Rx   d 8 01 EB BF FF 81 00 00 80
   2.120900 1  105             Rx   d 8 D9 04 0A 15 80 53 17 02
   2.123510 1  86              Rx   d 8 5F 2E 90 65 09 63 4E 26
   2.133270 1  86              Rx   d 8 71 2F 9C E5 09 FB 4B 18
   2.138040 1  100             Rx   d 8 00 EC BF FF 87 00 00 80
   2.140680 1  105             Rx   d 8 00 05 D2 14 80 53 16 02
   2.143530 1  86              Rx   d 8 CF 20 A6 E5 09 F3 4B 9B
   2.153250 1  86              Rx   d 8 30 21 B4 65 0A 6B 49 6E
   2.158010 1  100             Rx   d 8 01 ED BF FF 87 00 00 80
   2.159820 1  105             Rx   d 8 5B 06 88 14 80 53 14 02
   2.163510 1  86              Rx   d 8 BE 22 C0 E5 0A 63 49 1F
   2.173320 1  86              Rx   d 8 03 23 CD 65 0B FB 46 B8
   2.177970 1  100             Rx   d 8 17 EE BF FF 92 00 00 80
   2.180740 1  105             Rx   d 8 E8 07 3A 14 80 53 14 02
   2.183470 1  86              Rx   d 8 E4 24 DB E5 0B 73 44 44
   2.193420 1  86              Rx   d 8 78 25 E8 E5 0B EB 41 77
   2.198110 1  100             Rx   d 8 16 EF BF FF 92 00 00 80
   2.200730 1  105             Rx   d 8 CA 08 10 14 80 53 13 02
   2.203360 1  86              Rx   d 8 FC 26 F5 65 0C E3 41 62
   2.213260 1  86              Rx   d 8 2D 27 04 E6 0C 7B 3F 26
   2.218040 1  100             Rx   d 8 1C E0 BF FF 97 00 00 80
   2.220080 1  105             Rx   d 8 7D 09 A2 13 80 53 10 02
   2.223560 1  86              Rx   d 8 A6 28 13 66 0D F3 3C BF
   2.233280 1  86              Rx   d 8 4E 29 20 66 0D EB 3C 7D
   2.238080 1  100             Rx   d 8 1D E1 BF FF 97 00 00 80
   2.240720 1  105             Rx   d 8 E4 0A 38 13 80 53 10 02
   2.243560 1  86              Rx   d 8 BD 2A 2F E6 0D 63 3A 8C
   2.253320 1  86              Rx   d 8 FA 2B 3F E6 0D FB 37 4F
   2.257960 1  100             Rx   d 8 14 E2 BF FF 9D 00 00 80
   2.260620 1  105             Rx   d 8 DB 0B 06 13 80 53 10 02
   2.263440 1  86              Rx   d 8 BE 2C 4E 66 0E 73 35 74
   2.273270 1  86              Rx   d 8 FF 2D 5D 66 0E 6B 35 3F
   2.277970 1  100             Rx   d 8 15 E3 BF FF 9D 00 00 80
   2.279520 1  105             Rx   d 8 55 0C 8E 12 80 53 10 02
   2.283440 1  86              Rx   d 8 A9 2E 6C E6 0E E3 32 54
   2.293340 1  86              Rx   d 8 A5 2F 7C E6 0E 7B 30 D3
   2.298000 1  100             Rx   d 8 12 E4 BF FF 9D 00 00 80
   2.300750 1  105             Rx   d 8 83 0D 46 12 80 53 0F 02
   2.303400 1  86              Rx   d 8 12 20 8C 66 0F F3 2D 8F
   2.313280 1  86              Rx   d 8 7D 21 9A 66 0F EB 2D EF
   2.318040 1  100             Rx   d 8 26 E5 BF FF A8 00 00 80
   2.319580 1  105             Rx   d 8 07 0E C0 11 80 53 0D 02
   2.323500 1  86              Rx   d 8 C3 22 A9 66 0F 63 2B EF
   2.333240 1  86              Rx   d 8 27 23 B9 66 0F FB 28 81
   2.338110 1  100             Rx   d 8 23 E6 BF FF AE 00 00 80
   2.341230 1  105             Rx   d 8 4C 0F 8A 11 80 53 0D 02
   2.343480 1  86              Rx   d 8 33 24 C9 66 0F 73 26 64
   2.353360 1  86              Rx   d 8 AC 25 D8 66 0F EB 23 76
   2.358060 1  100             Rx   d 8 22 E7 BF FF AE 00 00 80
   2.359620 1  105             Rx   d 8 E8 00 20 11 80 53 0C 02
   2.363510 1  86              Rx   d 8 FC 26 E7 66 0F E3 23 12
   2.373280 1  86              Rx   d 8 A5 27 F6 66 0F 7B 21 C1
   2.377940 1  100             Rx   d 8 37 E8 BF FF B4 00 00 80
   2.380210 1  105             Rx   d 8 22 01 EA 10 80 53 0C 02
   2.383440 1  86              Rx   d 8 CA 28 07 E7 0F F3 1E 66
   2.393360 1  86              Rx   d 8 21 29 14 67 0F EB 1E 07
   2.398050 1  100             Rx   d 8 36 E9 BF FF B4 00 00 80
   2.400680 1  105             Rx   d 8 A3 02 68 10 80 53 0C 02
   2.403400 1  86              Rx   d 8 B1 2A 24 67 0F 63 1C 2E
   2.413220 1  86              Rx   d 8 7B 2B 34 67 0F FB 19 68
   2.418040 1  100             Rx   d 8 38 EA BF FF B9 00 00 80
   2.419690 1  105             Rx   d 8 9A 03 50 10 80 53 0C 02
   2.423410 1  86              Rx   d 8 C5 2C 44 E7 0F 73 17 A7
   2.433230 1  86              Rx   d 8 0F 2D 53 67 0F EB 14 60
   2.438080 1  100             Rx   d 8 3F EB BF FF BF 00 00 80
   2.440830 1  105             Rx   d 8 FA 04 30 10 80 53 0B 02
   2.443430 1  86              Rx   d 8 87 2E 61 67 0F E3 14 D1
   2.453210 1  86              Rx   d 8 0F 2F 70 67 0F 7B 12 D7
   2.458000 1  100             Rx   d 8 38 EC BF FF BF 00 00 80
   2.459800 1  105             Rx   d 8 FA 05 30 10 80 53 0A 02
   2.463480 1  86              Rx   d 8 39 20 7F 67 0F F3 0F 74
   2.473230 1  86              Rx   d 8 03 21 8D 67 0F EB 0F A5
   2.478020 1  100             Rx   d 8 42 ED BF FF C4 00 00 80
   2.480300 1  105             Rx   d 8 FE 06 34 10 80 53 09 02
   2.483380 1  86              Rx   d 8 71 22 9C E7 0E 63 0D CE
   2.493360 1  86              Rx   d 8 77 23 AB 67 0F FB 0A E0
   2.498070 1  100             Rx   d 8 41 EE BF FF C4 00 00 80
   2.500810 1  105             Rx   d 8 F5 07 3E 10 80 53 09 02
   2.503320 1  86              Rx   d 8 3A 24 BD 67 0F 73 08 36
   2.513220 1  86              Rx   d 8 A9 25 CD 67 0F EB 05 41
   2.518090 1  100             Rx   d 8 4E EF BF FF CA 00 00 80
   2.519880 1  105             Rx   d 8 CF 08 04 10 80 53 06 02
   2.523440 1  86              Rx   d 8 22 26 DD 67 0F E3 05 D1
   2.533230 1  86              Rx   d 8 03 27 EC 67 0F 7B 03 5E
   2.538040 1  100             Rx   d 8 41 E0 BF FF CA 00 00 80
   2.540670 1  105             Rx   d 8 33 09 E6 0F 80 53 06 02
   2.543400 1  86              Rx   d 8 B8 28 FC E7 0F F3 00 F1
   2.553230 1  86              Rx   d 8 03 29 0C E8 0F 6A FE D3
   2.558050 1  100             Rx   d 8 40 E1 BF FF CA 00 00 80
   2.560690 1  105             Rx   d 8 6C 0A BA 0F 80 53 06 02
   2.563500 1  86              Rx   d 8 78 2A 1B E8 0F E2 FB 31
   2.569310 1  640             Rx   d 8 00 5D 68 87 79 00 00 00
   2.573340 1  86              Rx   d 8 C5 2B 29 E8 0F FA FB A7
   2.577930 1  100             Rx   d 8 59 E2 BF FF D0 00 00 80
   2.580200 1  105             Rx   d 8 8B 0B 5C 0F 80 53 06 02
   2.583400 1  86              Rx   d 8 0C 2C 38 E8 0F 72 F9 F2
   2.593330 1  86              Rx   d 8 12 2D 47 E8 0F EA F6 05
   2.598040 1  100             Rx   d 8 5D E3 BF FF D5 00 00 80
   2.599860 1  105             Rx   d 8 FA 0C 2A 0F 80 53 06 02
   2.603320 1  86              Rx   d 8 CC 2E 54 68 0F E2 F6 43
   2.613200 1  86              Rx   d 8 ED 2F 63 68 0F 7A F4 CE
   2.618130 1  100             Rx   d 8 5A E4 BF FF D5 00 00 80
   2.620780 1  105             Rx   d 8 36 0D E6 0E 80 53 06 02
   2.623500 1  86              Rx   d 8 66 20 71 E8 0E F2 F1 54
   2.633200 1  86              Rx   d 8 B2 21 7E E8 0E 6A EF 08
   2.638100 1  100             Rx   d 8 6F E5 BF FF E1 00 00 80
   2.640840 1  105             Rx   d 8 59 0E 8A 0E 80 53 06 02
   2.643450 1  86              Rx   d 8 93 22 8B 68 0E 62 EF 57
   2.653190 1  86              Rx   d 8 DD 23 99 68 0E FA EC 91
   2.658130 1  100             Rx   d 8 6C E6 BF FF E1 00 00 80
   2.659700 1  105             Rx   d 8 A6 0F 74 0E 80 53 06 02
   2.663500 1  86              Rx   d 8 12 24 A6 E8 0D 72 EA 6B
   2.673190 1  86              Rx   d 8 D7 25 B2 E8 0D 6A EA A3
   2.677940 1  100             Rx   d 8 6A E7 BF FF E6 00 00 80
   2.680110 1  105             Rx   d 8 81 00 5C 0E 80 53 06 02
   2.683380 1  86              Rx   d 8 DB 26 C0 E8 0D E2 E7 5B
   2.693380 1  86              Rx   d 8 05 27 CB 68 0D FA E7 17
   2.698010 1  100             Rx   d 8 6F E8 BF FF EC 00 00 80
   2.700640 1  105             Rx   d 8 E0 01 3C 0E 80 53 06 02
   2.703290 1  86              Rx   d 8 71 28 D7 68 0D 72 E5 FA
   2.713330 1  86              Rx   d 8 0C 29 E4 E8 0C EA E2 AB
   2.718050 1  100             Rx   d 8 6E E9 BF FF EC 00 00 80
   2.720690 1  105             Rx   d 8 C3 02 1C 0E 80 53 06 02
   2.723410 1  86              Rx   d 8 4D 2A EF E8 0C E2 E2 EA
   2.733230 1  86              Rx   d 8 BE 2B FC E8 0C 7A E0 91
   2.738040 1  100             Rx   d 8 6D EA BF FF EC 00 00 80
   2.740920 1  105             Rx   d 8 CA 03 14 0E 80 53 06 02
   2.743520 1  86              Rx   d 8 E4 2C 06 69 0C 72 E0 BF
   2.753200 1  86              Rx   d 8 87 2D 12 69 0C EA DD 6C
   2.758040 1  100             Rx   d 8 71 EB BF FF F1 00 00 80
   2.759600 1  105             Rx   d 8 C0 04 1A 0E 80 53 05 02
   2.763530 1  86              Rx   d 8 6A 2E 1D E9 0B E2 DD 02
   2.773300 1  86              Rx   d 8 30 2F 28 E9 0B 7A DB F2
   2.778000 1  100             Rx   d 8 76 EC BF FF F1 00 00 80
   2.780160 1  105             Rx   d 8 F1 05 2A 0E 80 53 05 02
   2.783380 1  86              Rx   d 8 28 20 33 E9 0B F2 D8 75
   2.793340 1  86              Rx   d 8 09 21 3B 69 0B EA D8 C5
   2.797980 1  100             Rx   d 8 71 ED BF FF F7 00 00 80
   2.800610 1  105             Rx   d 8 EE 06 36 0E 80 53 05 02
   2.803320 1  86              Rx   d 8 60 22 46 69 0B 62 D6 54
   2.813190 1  86              Rx   d 8 A0 23 4F E9 0A 7A D6 05
   2.818160 1  100             Rx   d 8 72 EE BF FF F7 00 00 80
   2.820910 1  105             Rx   d 8 9A 07 42 0E 80 53 04 02
   2.823390 1  86              Rx   d 8 D4 24 5A E9 0A F2 D3 EE
   2.833160 1  86              Rx   d 8 CA 25 63 69 0A EA D3 50
   2.837990 1  100             Rx   d 8 73 EF BF FF F7 00 00 80
   2.839900 1  105             Rx   d 8 F9 08 2E 0E 80 53 04 02
   2.843450 1  86              Rx   d 8 F0 26 6C 69 0A E2 D3 6E
   2.853170 1  86              Rx   d 8 A0 27 76 69 0A 7A D1 BF
   2.857950 1  100             Rx   d 8 76 E0 BF FF FD 00 00 80
   2.859990 1  105             Rx   d 8 F2 09 24 0E 80 53 04 02
   2.863430 1  86              Rx   d 8 87 28 7E E9 09 72 D1 14
   2.873150 1  86              Rx   d 8 F5 29 88 E9 09 EA CE 16
   2.877950 1  100             Rx   d 8 77 E1 BF FF FD 00 00 80
   2.879750 1  105             Rx   d 8 C0 0A 10 0E 80 53 01 02
   2.883370 1  86              Rx   d 8 93 2A 8F 69 09 E2 CE FC
   2.893390 1  86              Rx   d 8 1B 2B 98 69 09 7A CC F8
   2.898080 1  100             Rx   d 8 74 E2 BF FF FD 00 00 80
   2.900600 1  105             Rx   d 8 C0 0B 10 0E 80 53 00 02
   2.903320 1  86              Rx   d 8 39 2C 9E E9 08 72 CC 52
   2.913160 1  86              Rx   d 8 27 2D A5 E9 08 6A CC 6E
   2.918040 1  100             Rx   d 8 75 E3 BF FF FD 00 00 80
   2.920660 1  105             Rx   d 8 F6 0C 20 0E 81 53 00 02
   2.923380 1  86              Rx   d 8 47 2E AD 69 08 E2 C9 08
   2.933140 1  86              Rx   d 8 6F 2F B2 E9 07 FA C9 A9
   2.938050 1  100             Rx   d 8 72 E4 BF FF FD 00 00 80
   2.940320 1  105             Rx   d 8 28 0D FC 0D 81 53 00 02
   2.943400 1  86              Rx   d 8 BB 20 B8 E9 07 F2 C9 70
   2.953190 1  86              Rx   d 8 06 21 BF 69 07 6A C7 DD
   2.958040 1  100             Rx   d 8 73 E5 BF FF FD 00 00 80
   2.959610 1  105             Rx   d 8 35 0E E2 0D 81 53 00 02
   2.963450 1  86              Rx   d 8 50 22 C4 69 07 62 C7 FB
   2.973320 1  86              Rx   d 8 66 23 C7 69 06 7A C7 D6
   2.977960 1  100             Rx   d 8 70 E6 BF FF FD 00 00 80
   2.980240 1  105             Rx   d 8 02 0F D4 0D 81 53 00 02
   2.983440 1  86              Rx   d 8 0A 24 CA E9 05 72 C7 3B
   2.993320 1  86              Rx   d 8 59 25 CD 69 05 6A C7 F6
   2.998120 1  100             Rx   d 8 71 E7 BF FF FD 00 00 80
   3.000390 1  105             Rx   d 8 1F 00 C6 0D 81 53 00 02
   3.003340 1  86              Rx   d 8 F0 26 CE E9 04 62 C7 D6
   3.013170 1  86              Rx   d 8 99 27 D0 69 04 FA C4 BB
   3.018140 1  100             Rx   d 8 7E E8 BF FF FD 00 00 80
   3.020770 1  105             Rx   d 8 74 01 AC 0D 81 53 00 02
   3.023380 1  86              Rx   d 8 93 28 D1 E9 03 F2 C4 30
   3.033250 1  86              Rx   d 8 44 29 D1 69 03 EA C4 7E
   3.038000 1  100             Rx   d 8 7F E9 BF FF FD 00 00 80
   3.040860 1  105             Rx   d 8 47 02 9C 0D 81 53 00 02
   3.043350 1  86              Rx   d 8 12 2A D1 E9 02 E2 C4 A2
   3.053160 1  86              Rx   d 8 9C 2B D1 E9 01 FA C4 36
   3.057960 1  100             Rx   d 8 7C EA BF FF FD 00 00 80
   3.059720 1  105             Rx   d 8 54 03 8E 0D 81 53 00 02
   3.063400 1  86              Rx   d 8 6F 2C D0 29 00 F2 C4 0A
   3.069310 1  640             Rx   d 8 00 5D 68 87 79 00 00 00
   3.073160 1  86              Rx   d 8 AC 2D CE 29 00 6A C7 4D
   3.077960 1  100             Rx   d 8 7D EB BF FF FD 00 00 80
   3.080110 1  105             Rx   d 8 4F 04 92 0D 81 53 00 02
   3.083360 1  86              Rx   d 8 E4 2E CE 29 00 62 C7 0E
   3.093220 1  86              Rx   d 8 66 2F CD 29 00 7A C7 96
   3.098040 1  100             Rx   d 8 7A EC BF FF FD 00 00 80
   3.099830 1  105             Rx   d 8 5C 05 80 0D 81 53 00 02
   3.103280 1  86              Rx   d 8 EE 20 CD 29 00 72 C7 19
   3.113160 1  86              Rx   d 8 93 21 CD 29 00 6A C7 7D
   3.118080 1  100             Rx   d 8 7B ED BF FF FD 00 00 80
   3.120000 1  105             Rx   d 8 B1 06 6E 0D 81 53 00 02
   3.123450 1  86              Rx   d 8 DB 22 CD 29 00 62 C7 3E
   3.133170 1  86              Rx   d 8 59 23 CE 29 00 7A C7 A6
   3.138040 1  100             Rx   d 8 78 EE BF FF FD 00 00 80
   3.140680 1  105             Rx   d 8 B2 07 6C 0D 81 53 00 02
   3.143400 1  86              Rx   d 8 B4 24 CE 29 00 72 C7 44
   3.153140 1  86              Rx   d 8 C9 25 CE 29 00 6A C7 20
   3.158030 1  100             Rx   d 8 79 EF BF FF FD 00 00 80
   3.160670 1  105             Rx   d 8 BF 08 6E 0D 81 53 00 02
   3.163470 1  86              Rx   d 8 81 26 CE 29 00 62 C7 63
   3.173180 1  86              Rx   d 8 FC 27 CE 29 00 7A C7 07
   3.178020 1  100             Rx   d 8 7C E0 BF FF F7 00 00 80
   3.180880 1  105             Rx   d 8 B4 09 64 0D 81 53 00 02
   3.183380 1  86              Rx   d 8 21 28 CF 29 00 72 C7 DC
   3.193150 1  86              Rx   d 8 5C 29 CF 29 00 6A C7 B8
   3.198120 1  100             Rx   d 8 7D E1 BF FF F7 00 00 80
   3.199920 1  105             Rx   d 8 B1 0A 62 0D 81 53 00 02
   3.203370 1  86              Rx   d 8 FF 2A D0 29 00 E2 C4 8C
   3.213160 1  86              Rx   d 8 D7 2B D1 29 00 FA C4 BC
   3.218080 1  100             Rx   d 8 7E E2 BF FF F7 00 00 80
   3.219880 1  105             Rx   d 8 B2 0B 60 0D 81 53 00 02
   3.223460 1  86              Rx   d 8 3A 2C D1 29 00 F2 C4 5E
   3.233150 1  86              Rx   d 8 B8 2D D2 29 00 EA C4 C6
   3.238050 1  100             Rx   d 8 7F E3 BF FF F7 00 00 80
   3.239610 1  105             Rx   d 8 89 0C 5C 0D 81 53 00 02
   3.243350 1  86              Rx   d 8 5A 2E D3 E9 00 E2 C4 EE
   3.253160 1  86              Rx   d 8 F6 2F D5 E9 00 FA C4 5D
   3.258000 1  100             Rx   d 8 78 E4 BF FF F7 00 00 80
   3.260040 1  105             Rx   d 8 88 0D 5E 0D 81 53 02 02
   3.263370 1  86              Rx   d 8 D4 20 D7 E9 00 F2 C4 7A
   3.273130 1  86              Rx   d 8 90 21 D9 69 01 EA C4 A8
   3.278010 1  100             Rx   d 8 79 E5 BF FF F7 00 00 80
   3.280520 1  105             Rx   d 8 89 0E 5C 0D 80 53 03 02
   3.283370 1  86              Rx   d 8 72 22 DB 69 01 E2 C4 43
   3.293110 1  86              Rx   d 8 DE 23 DD 69 01 FA C4 F0
   3.298030 1  100             Rx   d 8 7A E6 BF FF F7 00 00 80
   3.300770 1  105             Rx   d 8 87 0F 56 0D 80 53 06 02
   3.303270 1  86              Rx   d 8 33 24 DF E9 01 F2 C4 90
   3.313170 1  86              Rx   d 8 56 25 E0 E9 01 EA C4 D3
   3.318130 1  100             Rx   d 8 7D E7 BF FF F1 00 00 80
   3.320760 1  105             Rx   d 8 8D 00 52 0D 80 53 07 02
   3.323370 1  86              Rx   d 8 B4 26 E2 E9 01 E2 C4 38
   3.333130 1  86              Rx   d 8 9C 27 E3 E9 01 FA C4 08
   3.338020 1  100             Rx   d 8 72 E8 BF FF F1 00 00 80
   3.340290 1  105             Rx   d 8 B9 01 68 0D 80 53 08 02
   3.343380 1  86              Rx   d 8 90 28 E4 E9 01 F2 C4 04
   3.353130 1  86              Rx   d 8 24 29 E6 E9 01 6A C2 2D
   3.358040 1  100             Rx   d 8 73 E9 BF FF F1 00 00 80
   3.360080 1  105             Rx   d 8 55 02 84 0D 80 53 0B 02
   3.363470 1  86              Rx   d 8 6C 2A E6 E9 01 62 C2 6E
   3.373170 1  86              Rx   d 8 EE 2B E7 69 01 7A C2 74
   3.378000 1  100             Rx   d 8 70 EA BF FF F1 00 00 80
   3.379560 1  105             Rx   d 8 6C 03 BC 0D 80 53 0B 02
   3.383280 1  86              Rx   d 8 03 2C E7 69 01 72 C2 96
   3.393120 1  86              Rx   d 8 7E 2D E7 69 01 6A C2 F2
   3.398150 1  100             Rx   d 8 71 EB BF FF F1 00 00 80
   3.399690 1  105             Rx   d 8 C0 04 14 0E 80 53 0B 02
   3.403280 1  86              Rx   d 8 28 2E E7 E9 00 62 C2 2E
   3.413120 1  86              Rx   d 8 FF 2F E6 29 00 7A C2 21
   3.418090 1  100             Rx   d 8 76 EC BF FF F1 00 00 80
   3.420970 1  105             Rx   d 8 CA 05 1E 0F 80 53 0B 02
   3.423460 1  86              Rx   d 8 77 20 E6 29 00 72 C2 AE
   3.433120 1  86              Rx   d 8 C3 21 E4 29 00 EA C4 87
   3.438000 1  100             Rx   d 8 77 ED BF FF F1 00 00 80
   3.439780 1  105             Rx   d 8 5D 06 8C 0F 80 53 0D 02
   3.443280 1  86              Rx   d 8 8B 22 E4 29 00 E2 C4 C4
   3.453120 1  86              Rx   d 8 F6 23 E4 29 00 FA C4 A0
   3.458040 1  100             Rx   d 8 74 EE BF FF F1 00 00 80
   3.460900 1  105             Rx   d 8 D2 07 1E 10 80 53 0E 02
   3.463380 1  86              Rx   d 8 1B 24 E4 29 00 F2 C4 42
   3.473120 1  86              Rx   d 8 66 25 E4 29 00 EA C4 26
   3.478010 1  100             Rx   d 8 75 EF BF FF F1 00 00 80
   3.479560 1  105             Rx   d 8 31 08 F2 10 80 53 0E 02
   3.483300 1  86              Rx   d 8 2E 26 E4 29 00 E2 C4 65
   3.493130 1  86              Rx   d 8 53 27 E4 29 00 FA C4 01
   3.498140 1  100             Rx   d 8 7A E0 BF FF F1 00 00 80
   3.501130 1  105             Rx   d 8 8B 09 48 11 80 53 0E 02
   3.503380 1  86              Rx   d 8 DB 28 E4 29 00 F2 C4 8E
   3.513120 1  86              Rx   d 8 A6 29 E4 29 00 EA C4 EA
   3.518210 1  100             Rx   d 8 7B E1 BF FF F1 00 00 80
   3.519780 1  105             Rx   d 8 32 0A EC 11 80 53 10 02
   3.523340 1  86              Rx   d 8 EE 2A E4 29 00 E2 C4 A9
   3.533120 1  86              Rx   d 8 93 2B E4 29 00 FA C4 CD
   3.538040 1  100             Rx   d 8 78 E2 BF FF F1 00 00 80
   3.540840 1  105             Rx   d 8 EB 0B 28 12 80 53 0F 02
   3.543330 1  86              Rx   d 8 7E 2C E4 29 00 F2 C4 2F
   3.553200 1  86              Rx   d 8 03 2D E4 29 00 EA C4 4B
   3.558000 1  100             Rx   d 8 79 E3 BF FF F1 00 00 80
   3.560020 1  105             Rx   d 8 89 0C 4C 12 80 53 0E 02
   3.563400 1  86              Rx   d 8 4B 2E E4 29 00 E2 C4 08
   3.569410 1  640             Rx   d 8 00 5D 68 87 79 00 00 00
   3.573190 1  86              Rx   d 8 36 2F E4 29 00 FA C4 6C
   3.578040 1  100             Rx   d 8 7E E4 BF FF F1 00 00 80
   3.580890 1  105             Rx   d 8 BD 0D 78 12 80 53 0F 02
   3.583320 1  86              Rx   d 8 BE 20 E4 29 00 F2 C4 E3
   3.593100 1  86              Rx   d 8 C3 21 E4 29 00 EA C4 87
   3.598070 1  100             Rx   d 8 62 E5 BF FF EC 00 00 80
   3.600590 1  105             Rx   d 8 B8 0E 7E 12 80 53 0F 02
   3.603330 1  86              Rx   d 8 8B 22 E4 29 00 E2 C4 C4
   3.613130 1  86              Rx   d 8 3F 23 E6 29 00 7A C2 ED
   3.618140 1  100             Rx   d 8 61 E6 BF FF EC 00 00 80
   3.619820 1  105             Rx   d 8 BB 0F 7C 12 80 53 0F 02
   3.623400 1  86              Rx   d 8 D2 24 E6 29 00 72 C2 0F
   3.633120 1  86              Rx   d 8 AF 25 E6 29 00 6A C2 6B
   3.637990 1  100             Rx   d 8 60 E7 BF FF EC 00 00 80
   3.640860 1  105             Rx   d 8 BC 00 74 12 80 53 0F 02
   3.643350 1  86              Rx   d 8 B2 26 E7 29 00 62 C2 7C
   3.653160 1  86              Rx   d 8 CF 27 E7 29 00 7A C2 18
   3.658000 1  100             Rx   d 8 6F E8 BF FF EC 00 00 80
   3.660030 1  105             Rx   d 8 97 01 5E 12 80 53 0F 02
   3.663350 1  86              Rx   d 8 35 28 E8 29 00 72 C2 EA
   3.673080 1  86              Rx   d 8 1D 29 E9 29 00 6A C2 DA
   3.678000 1  100             Rx   d 8 6E E9 BF FF EC 00 00 80
   3.681000 1  105             Rx   d 8 92 02 58 12 80 53 0F 02
   3.683370 1  86              Rx   d 8 AA 2A EA 29 00 62 C2 65
   3.693170 1  86              Rx   d 8 F9 2B EC E9 00 7A C2 E9
   3.698060 1  100             Rx   d 8 6D EA BF FF EC 00 00 80
   3.700470 1  105             Rx   d 8 94 03 40 12 80 53 10 02
   3.703320 1  86              Rx   d 8 BE 2C EE E9 00 72 C2 A3
   3.713120 1  86              Rx   d 8 6C 2D F1 69 01 6A C2 F6
   3.718160 1  100             Rx   d 8 6C EB BF FF EC 00 00 80
   3.720720 1  105             Rx   d 8 EF 04 3C 12 80 53 10 02
   3.723330 1  86              Rx   d 8 F5 2E F5 E9 01 62 C2 E0
   3.733120 1  86              Rx   d 8 D1 2F FA 69 02 FA BF AC
   3.738080 1  100             Rx   d 8 6B EC BF FF EC 00 00 80
   3.739990 1  105             Rx   d 8 D3 05 1E 12 80 53 0F 02
   3.743320 1  86              Rx   d 8 DD 20 FD 69 02 F2 BF A0
   3.753160 1  86              Rx   d 8 E4 21 00 EA 02 EA BF FE
   3.758030 1  100             Rx   d 8 6A ED BF FF EC 00 00 80
   3.760780 1  105             Rx   d 8 D4 06 1A 12 80 53 0F 02
   3.763410 1  86              Rx   d 8 06 22 02 EA 02 E2 BF 15
   3.773080 1  86              Rx   d 8 FF 23 05 EA 02 FA BF F2
   3.778070 1  100             Rx   d 8 63 EE BF FF E6 00 00 80
   3.780590 1  105             Rx   d 8 C8 07 18 12 80 53 10 02
   3.783370 1  86              Rx   d 8 D4 24 08 6A 03 F2 BF 5A
   3.793100 1  86              Rx   d 8 03 25 0A 6A 03 EA BF 96
   3.798070 1  100             Rx   d 8 62 EF BF FF E6 00 00 80
   3.799620 1  105             Rx   d 8 C9 08 08 12 80 53 0E 02
   3.803240 1  86              Rx   d 8 82 26 0E 6A 03 62 BD 9A
   3.813090 1  86              Rx   d 8 4E 27 11 6A 03 7A BD 50
   3.818120 1  100             Rx   d 8 6D E0 BF FF E6 00 00 80
   3.819730 1  105             Rx   d 8 3C 09 FE 11 80 53 0F 02
   3.823300 1  86              Rx   d 8 E8 28 14 6A 03 72 BD F4
   3.833100 1  86              Rx   d 8 21 29 16 EA 02 6A BD A7
   3.838120 1  100             Rx   d 8 6C E1 BF FF E6 00 00 80
   3.839680 1  105             Rx   d 8 35 0A F4 11 80 53 0F 02
   3.843320 1  86              Rx   d 8 1B 2A 19 EA 02 62 BD 99
   3.853210 1  86              Rx   d 8 1D 2B 1D EA 02 7A BD 82
   3.857970 1  100             Rx   d 8 6F E2 BF FF E6 00 00 80
   3.861100 1  105             Rx   d 8 20 0B E0 11 80 53 0F 02
   3.863360 1  86              Rx   d 8 7D 2C 22 6A 03 F2 BA D4
   3.873080 1  86              Rx   d 8 F6 2D 28 EA 03 EA BA CC
   3.877960 1  100             Rx   d 8 6E E3 BF FF E6 00 00 80
   3.879520 1  105             Rx   d 8 09 0C CE 11 80 53 0F 02
   3.883330 1  86              Rx   d 8 90 2E 2D EA 03 E2 BA A4
   3.893090 1  86              Rx   d 8 5A 2F 34 6A 04 FA BA E9
   3.898060 1  100             Rx   d 8 6E E4 BF FF E1 00 00 80
   3.900820 1  105             Rx   d 8 0A 0D CC 11 80 53 0F 02
   3.903320 1  86              Rx   d 8 69 20 3D EA 04 72 B8 D6
   3.913100 1  86              Rx   d 8 EB 21 45 6A 05 6A B8 B4
   3.918070 1  100             Rx   d 8 6F E5 BF FF E1 00 00 80
   3.919670 1  105             Rx   d 8 0D 0E C8 11 80 53 0F 02
   3.923270 1  86              Rx   d 8 44 22 50 6A 06 E2 B5 8B
   3.933070 1  86              Rx   d 8 CF 23 5A EA 06 FA B5 93
   3.938110 1  100             Rx   d 8 6C E6 BF FF E1 00 00 80
   3.941230 1  105             Rx   d 8 02 0F C6 11 80 53 0F 02
   3.943360 1  86              Rx   d 8 ED 24 65 EA 07 72 B3 06
   3.953080 1  86              Rx   d 8 96 25 71 6A 08 EA B0 7C
   3.958040 1  100             Rx   d 8 6D E7 BF FF E1 00 00 80
   3.959590 1  105             Rx   d 8 0D 00 C6 11 80 53 0F 02
   3.963340 1  86              Rx   d 8 E7 26 7D 6A 09 E2 B0 0B
   3.973140 1  86              Rx   d 8 D7 27 8B EA 09 7A AE CA
   3.977960 1  100             Rx   d 8 62 E8 BF FF E1 00 00 80
   3.980840 1  105             Rx   d 8 02 01 C8 11 80 53 0F 02
   3.983330 1  86              Rx   d 8 B1 28 99 EA 0A F2 AB 3F
   3.993080 1  86              Rx   d 8 35 29 A7 EA 0B EA AB 9D
   3.998080 1  100             Rx   d 8 63 E9 BF FF E1 00 00 80
   3.999630 1  105             Rx   d 8 01 02 C8 11 80 53 0F 02
   4.003240 1  86              Rx   d 8 8E 2A B6 6A 0C 62 A9 39
   4.013050 1  86              Rx   d 8 B7 2B C5 EA 0C FA A6 65
   4.018210 1  100             Rx   d 8 54 EA BF FF D5 00 00 80
   4.021020 1  105             Rx   d 8 0C 03 C4 11 80 53 0F 02
   4.023400 1  86              Rx   d 8 03 2C D2 6A 0D F2 A6 48
   4.033070 1  86              Rx   d 8 F3 2D E1 EA 0D 6A A4 90
   4.038020 1  100             Rx   d 8 55 EB BF FF D5 00 00 80
   4.039800 1  105             Rx   d 8 09 04 C6 11 80 53 0F 02
   4.043320 1  86              Rx   d 8 55 2E F1 6A 0E E2 A1 2B
   4.053050 1  86              Rx   d 8 8D 2F 00 6B 0E 7A 9F A4
   4.057990 1  100             Rx   d 8 52 EC BF FF D5 00 00 80
   4.060740 1  105             Rx   d 8 09 05 C6 11 80 53 0E 02
   4.063230 1  86              Rx   d 8 DD 20 0D 6B 0E 72 9F FE
   4.069470 1  640             Rx   d 8 00 5D 68 87 79 00 00 00
   4.073080 1  86              Rx   d 8 C6 21 1C EB 0E EA 9C EE
   4.077990 1  100             Rx   d 8 53 ED BF FF D5 00 00 80
   4.080190 1  105             Rx   d 8 06 06 CA 11 80 53 0E 02
   4.083270 1  86              Rx   d 8 87 22 2C EB 0E 62 9A 12
   4.093080 1  86              Rx   d 8 11 23 3A EB 0E FA 97 06
   4.098160 1  100             Rx   d 8 50 EE BF FF D5 00 00 80
   4.100910 1  105             Rx   d 8 07 07 CA 11 80 53 0E 02
   4.103280 1  86              Rx   d 8 33 24 47 EB 0E F2 97 56
   4.113050 1  86              Rx   d 8 6A 25 56 EB 0E 6A 95 85
   4.118140 1  100             Rx   d 8 51 EF BF FF D5 00 00 80
   4.120340 1  105             Rx   d 8 7A 08 B8 11 80 53 0E 02
   4.123300 1  86              Rx   d 8 ED 26 63 EB 0E E2 92 BB
   4.133120 1  86              Rx   d 8 06 27 70 6B 0E FA 92 DA
   4.138030 1  100             Rx   d 8 5B E0 BF FF D0 00 00 80
   4.140900 1  105             Rx   d 8 6B 09 A8 11 80 53 0E 02
   4.143390 1  86              Rx   d 8 1B 28 7E 6B 0E 72 90 4C
   4.153050 1  86              Rx   d 8 30 29 8B EB 0D EA 8D 95
   4.158090 1  100             Rx   d 8 5A E1 BF FF D0 00 00 80
   4.159640 1  105             Rx   d 8 4E 0A 8E 11 80 53 0E 02
   4.163350 1  86              Rx   d 8 63 2A 96 EB 0D E2 8D D0
   4.173050 1  86              Rx   d 8 BD 2B A4 EB 0D 7A 8B A3
   4.178000 1  100             Rx   d 8 59 E2 BF FF D0 00 00 80
   4.180850 1  105             Rx   d 8 47 0B 86 11 80 53 0E 02
   4.183330 1  86              Rx   d 8 F3 2C AF 6B 0D 72 8B 69
   4.193040 1  86              Rx   d 8 72 2D BB EB 0C EA 88 E7
   4.198110 1  100             Rx   d 8 58 E3 BF FF D0 00 00 80
   4.199650 1  105             Rx   d 8 B8 0C 7E 11 80 53 0E 02
   4.203260 1  86              Rx   d 8 3C 2E C8 EB 0C 62 86 5F
   4.213130 1  86              Rx   d 8 74 2F D2 6B 0C 7A 86 94
   4.218060 1  100             Rx   d 8 45 E4 BF FF CA 00 00 80
   4.220370 1  105             Rx   d 8 BB 0D 7C 11 80 53 0E 02
   4.223370 1  86              Rx   d 8 50 20 DF 6B 0C F2 83 3F
   4.233050 1  86              Rx   d 8 96 21 E9 6B 0C EA 83 D6
   4.238010 1  100             Rx   d 8 44 E5 BF FF CA 00 00 80
   4.240280 1  105             Rx   d 8 B9 0E 7C 11 80 53 0F 02
   4.243360 1  86              Rx   d 8 DD 22 F6 6B 0C 62 81 0B
   4.253070 1  86              Rx   d 8 D4 23 FF EB 0B 7A 81 95
   4.258010 1  100             Rx   d 8 47 E6 BF FF CA 00 00 80
   4.260890 1  105             Rx   d 8 BA 0F 7E 11 80 53 0F 02
   4.263270 1  86              Rx   d 8 C5 24 0A EC 0B F2 7E 06
   4.273070 1  86              Rx   d 8 F6 25 14 6C 0B EA 7E B2
   4.277960 1  100             Rx   d 8 46 E7 BF FF CA 00 00 80
   4.279740 1  105             Rx   d 8 B5 00 7E 11 80 53 0F 02
   4.283250 1  86              Rx   d 8 05 26 1F 6C 0B 62 7C C3
   4.293040 1  86              Rx   d 8 48 27 2A 6C 0B FA 79 27
   4.298120 1  100             Rx   d 8 49 E8 BF FF CA 00 00 80
   4.300390 1  105             Rx   d 8 48 01 82 11 80 53 0F 02
   4.303240 1  86              Rx   d 8 3A 28 34 EC 0A F2 79 CD
   4.313040 1  86              Rx   d 8 A0 29 3F EC 0A 6A 77 CB
   4.318080 1  100             Rx   d 8 48 E9 BF FF CA 00 00 80
   4.319630 1  105             Rx   d 8 76 02 A0 11 80 53 10 02
   4.323280 1  86              Rx   d 8 2E 2A 49 EC 0A 62 77 38
   4.333060 1  86              Rx   d 8 12 2B 54 EC 0A FA 74 83
   4.338070 1  100             Rx   d 8 4B EA BF FF CA 00 00 80
   4.340940 1  105             Rx   d 8 7D 03 AA 11 80 53 10 02
   4.343310 1  86              Rx   d 8 F6 2C 5F EC 0A F2 74 63
   4.353110 1  86              Rx   d 8 F9 2D 6B EC 0A 6A 72 C7
   4.358040 1  100             Rx   d 8 4A EB BF FF CA 00 00 80
   4.359600 1  105             Rx   d 8 6C 04 BC 11 80 53 10 02
   4.363360 1  86              Rx   d 8 AA 2E 76 EC 0A 62 72 82
   4.373010 1  86              Rx   d 8 93 2F 82 6C 0B FA 6F 4A
   4.377960 1  100             Rx   d 8 4D EC BF FF CA 00 00 80
   4.380710 1  105             Rx   d 8 12 05 C2 11 80 53 11 02
   4.383220 1  86              Rx   d 8 C0 20 90 6C 0B 72 6D 8E
   4.393030 1  86              Rx   d 8 B4 21 9B 6C 0B 6A 6D E8
   4.398060 1  100             Rx   d 8 4C ED BF FF CA 00 00 80
   4.399880 1  105             Rx   d 8 31 06 E2 11 80 53 11 02
   4.403220 1  86              Rx   d 8 E2 22 AA EC 0B E2 6A 83
   4.413040 1  86              Rx   d 8 93 23 B8 6C 0C 7A 68 FC
   4.418060 1  100             Rx   d 8 4F EE BF FF CA 00 00 80
   4.420730 1  105             Rx   d 8 22 07 F0 11 80 53 11 02
   4.423340 1  86              Rx   d 8 E4 24 C6 EC 0C 72 68 7A
   4.433040 1  86              Rx   d 8 5C 25 D5 EC 0C EA 65 45
   4.438040 1  100             Rx   d 8 4E EF BF FF CA 00 00 80
   4.440320 1  105             Rx   d 8 D6 08 08 12 80 53 11 02
   4.443290 1  86              Rx   d 8 56 26 E6 EC 0D 62 63 F0
   4.453030 1  86              Rx   d 8 BE 27 F7 6C 0E FA 60 10
   4.458000 1  100             Rx   d 8 41 E0 BF FF CA 00 00 80
   4.460750 1  105             Rx   d 8 F5 09 2A 12 80 53 11 02
   4.463240 1  86              Rx   d 8 1E 28 08 ED 0E 72 5E 77
   4.473030 1  86              Rx   d 8 60 29 1A 6D 0F EA 5B 06
   4.477960 1  100             Rx   d 8 40 E1 BF FF CA 00 00 80
   4.479750 1  105             Rx   d 8 F4 0A 28 12 80 53 11 02
   4.483240 1  86              Rx   d 8 39 2A 2C ED 0F E2 5B E2
   4.493080 1  86              Rx   d 8 D4 2B 41 ED 10 FA 56 69
   4.498060 1  100             Rx   d 8 43 E2 BF FF CA 00 00 80
   4.500130 1  105             Rx   d 8 E1 0B 3C 12 80 53 11 02
   4.503220 1  86              Rx   d 8 CA 2C 54 6D 11 F2 56 EC
   4.513030 1  86              Rx   d 8 96 2D 6A ED 11 EA 51 10
   4.518080 1  100             Rx   d 8 42 E3 BF FF CA 00 00 80
   4.520990 1  105             Rx   d 8 9E 0C 44 12 80 53 11 02
   4.523240 1  86              Rx   d 8 84 2E 80 ED 12 62 4F 7E
   4.533000 1  86              Rx   d 8 AF 2F 96 6D 13 FA 4C 58
   4.538020 1  100             Rx   d 8 45 E4 BF FF CA 00 00 80
   4.540280 1  105             Rx   d 8 97 0D 4C 12 80 53 11 02
   4.543270 1  86              Rx   d 8 8D 20 AD ED 13 72 4A 40
   4.553010 1  86              Rx   d 8 03 21 C4 ED 14 EA 47 34
   4.558040 1  100             Rx   d 8 44 E5 BF FF CA 00 00 80
   4.560800 1  105             Rx   d 8 88 0E 50 12 80 53 11 02
   4.563330 1  86              Rx   d 8 D2 22 DC 6D 15 62 45 F5
   4.569290 1  640             Rx   d 8 00 5D 68 87 79 00 00 00
   4.573050 1  86              Rx   d 8 84 23 F5 ED 15 FA 42 94
   4.577960 1  100             Rx   d 8 47 E6 BF FF CA 00 00 80
   4.580230 1  105             Rx   d 8 93 0F 4A 12 80 53 11 02
   4.583230 1  86              Rx   d 8 30 24 0F EE 16 F2 3D AA
   4.593040 1  86              Rx   d 8 1D 25 28 6E 17 6A 3B BE
   4.598080 1  100             Rx   d 8 5C E7 BF FF D0 00 00 80
   4.600720 1  105             Rx   d 8 90 00 46 12 80 53 11 02
   4.603210 1  86              Rx   d 8 78 26 43 EE 17 E2 38 B8
   4.613010 1  86              Rx   d 8 9F 27 5F EE 18 FA 33 5E
   4.618120 1  100             Rx   d 8 53 E8 BF FF D0 00 00 80
   4.620810 1  105             Rx   d 8 97 01 40 12 80 53 11 02
   4.623300 1  86              Rx   d 8 DD 28 79 EE 18 72 31 BF
   4.633040 1  86              Rx   d 8 84 29 95 EE 19 EA 2E 8D
   4.638020 1  100             Rx   d 8 52 E9 BF FF D0 00 00 80
   4.640760 1  105             Rx   d 8 EE 02 3A 12 80 53 11 02
   4.643270 1  86              Rx   d 8 7E 2A B2 6E 1A E2 29 DF
   4.652990 1  86              Rx   d 8 22 2B CD EE 1A 7A 27 EB
   4.657930 1  100             Rx   d 8 51 EA BF FF D0 00 00 80
   4.659720 1  105             Rx   d 8 E9 03 3C 12 80 53 11 02
   4.663190 1  86              Rx   d 8 C5 2C EA 6E 1B 72 22 A0
   4.673000 1  86              Rx   d 8 EE 2D 05 6F 1B EA 1F C1
   4.677960 1  100             Rx   d 8 50 EB BF FF D0 00 00 80
   4.680090 1  105             Rx   d 8 E6 04 34 12 80 53 11 02
   4.683260 1  86              Rx   d 8 18 2E 22 EF 1B E2 1A 9E
   4.693030 1  86              Rx   d 8 66 2F 3D EF 1B 7A 18 64
   4.698120 1  100             Rx   d 8 57 EC BF FF D0 00 00 80
   4.701120 1  105             Rx   d 8 F9 05 2A 12 80 53 11 02
   4.703250 1  86              Rx   d 8 9F 20 57 EF 1B F2 15 7D
   4.713020 1  86              Rx   d 8 06 21 70 6F 1B 6A 13 DC
   4.718160 1  100             Rx   d 8 56 ED BF FF D0 00 00 80
   4.719960 1  105             Rx   d 8 F2 06 22 12 80 53 11 02
   4.723340 1  86              Rx   d 8 2B 22 8B 6F 1B 62 0E 1C
   4.733000 1  86              Rx   d 8 36 23 A2 EF 1A FA 0B 35
   4.738000 1  100             Rx   d 8 55 EE BF FF D0 00 00 80
   4.740880 1  105             Rx   d 8 CD 07 1C 12 80 53 11 02
   4.743250 1  86              Rx   d 8 09 24 BB EF 1A 72 09 9E
   4.753030 1  86              Rx   d 8 AF 25 D2 6F 1A EA 06 47
   4.758340 1  100             Rx   d 8 54 EF BF FF D0 00 00 80
   4.759640 1  105             Rx   d 8 CA 08 14 12 80 53 11 02
   4.763180 1  86              Rx   d 8 E4 26 EA EF 19 E2 01 BB
   4.773000 1  86              Rx   d 8 BD 27 00 70 19 79 FF F3
   4.777970 1  100             Rx   d 8 5B E0 BF FF D0 00 00 80
   4.780840 1  105             Rx   d 8 CB 09 14 12 80 53 11 02
   4.783240 1  86              Rx   d 8 C9 28 16 70 18 F1 FC 14
   4.793000 1  86              Rx   d 8 81 29 2B F0 17 69 FA 71
   4.798090 1  100             Rx   d 8 5A E1 BF FF D0 00 00 80
   4.799690 1  105             Rx   d 8 D2 0A 0E 12 80 53 11 02
   4.803160 1  86              Rx   d 8 47 2A 40 70 17 E1 F7 DA
   4.813020 1  86              Rx   d 8 7B 2B 55 F0 16 79 F5 E9
   4.818130 1  100             Rx   d 8 59 E2 BF FF D0 00 00 80
   4.820760 1  105             Rx   d 8 D1 0B 0C 12 80 53 11 02
   4.823300 1  86              Rx   d 8 50 2C 69 70 16 F1 F2 F6
   4.833030 1  86              Rx   d 8 7E 2D 7D F0 15 69 F0 D4
   4.838060 1  100             Rx   d 8 58 E3 BF FF D0 00 00 80
   4.839610 1  105             Rx   d 8 D4 0C 0E 12 80 53 11 02
   4.843310 1  86              Rx   d 8 A6 2E 90 70 15 E1 ED F7
   4.853010 1  86              Rx   d 8 A9 2F A4 70 15 79 EB 53
   4.858000 1  100             Rx   d 8 5F E4 BF FF D0 00 00 80
   4.860760 1  105             Rx   d 8 CD 0D 16 12 80 53 11 02
   4.863250 1  86              Rx   d 8 59 20 B7 F0 14 F1 E8 B5
   4.873060 1  86              Rx   d 8 50 21 C9 70 14 69 E6 D5
   4.878100 1  100             Rx   d 8 5E E5 BF FF D0 00 00 80
   4.880480 1  105             Rx   d 8 CE 0E 16 12 80 53 11 02
   4.883200 1  86              Rx   d 8 56 22 DC F0 13 E1 E3 CF
   4.892970 1  86              Rx   d 8 59 23 EE F0 13 79 E1 69
   4.897970 1  100             Rx   d 8 5D E6 BF FF D0 00 00 80
   4.900290 1  105             Rx   d 8 CB 0F 12 12 80 53 11 02
   4.903140 1  86              Rx   d 8 48 24 02 71 13 F1 DE A5
   4.912980 1  86              Rx   d 8 A3 25 13 71 13 E9 DE 46
   4.918090 1  100             Rx   d 8 59 E7 BF FF D5 00 00 80
   4.919900 1  105             Rx   d 8 C4 00 12 12 80 53 11 02
   4.923280 1  86              Rx   d 8 FC 26 25 F1 12 61 DC 27
   4.932960 1  86              Rx   d 8 9C 27 37 F1 12 F9 D9 C9
   4.938040 1  100             Rx   d 8 56 E8 BF FF D5 00 00 80
   4.939960 1  105             Rx   d 8 DF 01 08 12 80 53 11 02
   4.943280 1  86              Rx   d 8 47 28 47 71 12 71 D7 6B
   4.952960 1  86              Rx   d 8 D1 29 58 71 12 E9 D4 78
   4.958390 1  100             Rx   d 8 57 E9 BF FF D5 00 00 80
   4.960890 1  105             Rx   d 8 D0 02 04 12 80 53 11 02
   4.963170 1  86              Rx   d 8 9C 2A 69 F1 11 61 D2 0A
   4.972960 1  86              Rx   d 8 77 2B 78 F1 11 79 D2 E9
   4.977950 1  100             Rx   d 8 54 EA BF FF D5 00 00 80
   4.980220 1  105             Rx   d 8 2B 03 FE 11 80 53 12 02
   4.983300 1  86              Rx   d 8 63 2C 87 71 11 F1 CF 10
   4.992980 1  86              Rx   d 8 24 2D 96 F1 10 69 CD 5C
   4.998040 1  100             Rx   d 8 55 EB BF FF D5 00 00 80
   5.000720 1  105             Rx   d 8 2D 04 FC 11 80 53 11 02
   5.003210 1  86              Rx   d 8 D8 2E A5 71 10 E1 CA 9F
   5.013120 1  86              Rx   d 8 60 2F B2 F1 0F F9 CA B6
   5.018050 1  100             Rx   d 8 52 EC BF FF D5 00 00 80
   5.020330 1  105             Rx   d 8 24 05 F4 11 80 53 11 02
   5.023230 1  86              Rx   d 8 E7 20 C0 F1 0F 71 C8 C6
   5.032960 1  86              Rx   d 8 EE 21 CE 71 0F E9 C5 D5
   5.038090 1  100             Rx   d 8 53 ED BF FF D5 00 00 80
   5.040840 1  105             Rx   d 8 D2 06 02 12 80 53 11 02
   5.043220 1  86              Rx   d 8 D1 22 DC F1 0E E1 C5 72
   5.052970 1  86              Rx   d 8 21 23 EB F1 0E 79 C3 2A
   5.058290 1  100             Rx   d 8 50 EE BF FF D5 00 00 80
   5.060080 1  105             Rx   d 8 DD 07 0C 12 80 53 11 02
   5.063180 1  86              Rx   d 8 00 24 FA F1 0E F1 C0 96
   5.069310 1  640             Rx   d 8 00 5D 68 87 79 00 00 00
   5.073070 1  86              Rx   d 8 2E 25 08 72 0E 69 BE 2E
   5.078060 1  100             Rx   d 8 51 EF BF FF D5 00 00 80
   5.080680 1  105             Rx   d 8 23 08 FE 11 80 53 11 02
   5.083190 1  86              Rx   d 8 82 26 16 72 0E 61 BE 97
   5.092950 1  86              Rx   d 8 1E 27 25 72 0E F9 BB A4
   5.098080 1  100             Rx   d 8 5E E0 BF FF D5 00 00 80
   5.100160 1  105             Rx   d 8 26 09 FA 11 80 53 11 02
   5.103130 1  86              Rx   d 8 E7 28 35 72 0E 71 B9 C8
   5.112970 1  86              Rx   d 8 21 29 45 F2 0E E9 B6 68
   5.118140 1  100             Rx   d 8 5F E1 BF FF D5 00 00 80
   5.120670 1  105             Rx   d 8 2E 0A F2 11 80 53 12 02
   5.123200 1  86              Rx   d 8 FF 2A 54 F2 0E E1 B6 AC
   5.132970 1  86              Rx   d 8 44 2B 64 72 0F 79 B4 3D
   5.138030 1  100             Rx   d 8 5C E2 BF FF D5 00 00 80
   5.140670 1  105             Rx   d 8 2C 0B F2 11 80 53 11 02
   5.143280 1  86              Rx   d 8 4B 2C 75 72 0F F1 B1 A9
   5.153090 1  86              Rx   d 8 00 2D 87 F2 0F 69 AF 17
   5.158310 1  100             Rx   d 8 69 E3 BF FF E1 00 00 80
   5.159610 1  105             Rx   d 8 29 0C F0 11 80 53 11 02
   5.163190 1  86              Rx   d 8 F6 2E 99 F2 0F E1 AC 77
   5.173010 1  86              Rx   d 8 2E 2F AC 72 10 79 AA 9A
   5.178030 1  100             Rx   d 8 6E E4 BF FF E1 00 00 80
   5.180290 1  105             Rx   d 8 2A 0D F2 11 80 53 11 02
   5.183280 1  86              Rx   d 8 9C 20 BE F2 10 F1 A7 30
   5.192990 1  86              Rx   d 8 EB 21 D1 72 11 69 A5 32
   5.198040 1  100             Rx   d 8 6F E5 BF FF E1 00 00 80
   5.199880 1  105             Rx   d 8 DA 0E 02 12 80 53 11 02
   5.203200 1  86              Rx   d 8 93 22 E5 F2 11 E1 A2 72
   5.212960 1  86              Rx   d 8 47 23 F8 F2 11 79 A0 20
   5.218110 1  100             Rx   d 8 6C E6 BF FF E1 00 00 80
   5.221100 1  105             Rx   d 8 26 0F FC 11 80 53 11 02
   5.223280 1  86              Rx   d 8 6F 24 0C 73 12 F1 9D CC
   5.232940 1  86              Rx   d 8 E7 25 1F F3 12 69 9B 48
   5.238000 1  100             Rx   d 8 6D E7 BF FF E1 00 00 80
   5.239790 1  105             Rx   d 8 21 00 F4 11 80 53 11 02
   5.243240 1  86              Rx   d 8 74 26 30 F3 12 61 9B FF
   5.252940 1  86              Rx   d 8 EE 27 42 F3 12 F9 98 8D
   5.258020 1  100             Rx   d 8 62 E8 BF FF E1 00 00 80
   5.260770 1  105             Rx   d 8 38 01 EC 11 80 53 11 02
   5.263130 1  86              Rx   d 8 9A 28 54 F3 12 71 96 66
   5.273000 1  86              Rx   d 8 53 29 66 F3 12 E9 93 01
   5.277960 1  100             Rx   d 8 63 E9 BF FF E1 00 00 80
   5.279760 1  105             Rx   d 8 09 02 DE 11 80 53 11 02
   5.283200 1  86              Rx   d 8 C0 2A 76 73 12 61 91 8B
   5.292950 1  86              Rx   d 8 44 2B 88 73 12 F9 8E 77
   5.298000 1  100             Rx   d 8 60 EA BF FF E1 00 00 80
   5.301040 1  105             Rx   d 8 0C 03 DA 11 80 53 11 02
   5.303160 1  86              Rx   d 8 8D 2C 99 73 12 71 8C 22
   5.312940 1  86              Rx   d 8 48 2D AA F3 11 E9 89 CB
   5.318130 1  100             Rx   d 8 61 EB BF FF E1 00 00 80
   5.319920 1  105             Rx   d 8 07 04 D6 11 80 53 11 02
   5.323170 1  86              Rx   d 8 96 2E BB F3 11 E1 89 0F
   5.332960 1  86              Rx   d 8 69 2F CD 73 11 79 87 91
   5.337990 1  100             Rx   d 8 66 EC BF FF E1 00 00 80
   5.340520 1  105             Rx   d 8 08 05 D8 11 80 53 11 02
   5.343250 1  86              Rx   d 8 78 20 DF F3 11 F1 84 96
   5.352940 1  86              Rx   d 8 E8 21 F1 F3 11 69 82 B7
  